Поддерживаются платы реле которые работают со следующими командами:

Устройства Modbus выполняют соответствующие операции, получая инструкции Modbus RTU от внешнего 
терминала управления (например, главного компьютера/MCU). Инструкция обычно состоит из адреса 
устройства, кода функции, адреса регистра, данных регистра и кода проверки к функциональным кодам.
Обычно первый байт каждого кадра данных представляет собой адрес устройства, устанавливаемый 
диапазон — 1–255(0x00 - 0xFF), значение по умолчанию — 255 (т. е. 0xFF), а последние 2 байта
 — это код проверки CRC.

Предполагая, что адрес устройства равен 255, обычно используемые инструкции Modbus RTU следующие:

1. Замкнуть реле №1 (ручной режим)
Запрос: FF 05 00 00 FF 00 99 E4
Ответ:  FF 05 00 00 FF 00 99 E4

Примечание: Байты с 3-го по 4-й отправленного кадра представляют адрес реле 1–8: 0x0000, 0x0001, 
0x0002, 0x0003, 0x0004, 0x0005, 0x0006, 0x0007 соответственно.
Байты с 5 по 6 отправленного кадра представляют данные, 0xFF00 представляет закрытие реле, а 0x0000 
представляет открытие реле.

2. Разомкнуть реле №1 (ручной режим)
Запрос: FF 05 00 00 00 00 D8 14
Ответ:  FF 05 00 00 00 00 D8 14

3. Замкнуть все реле.
Запрос: FF 0F 00 00 00 08 01 FF 30 1D
Ответ:  FF 0F 00 00 00 08 41 D3

4. Разомкнуть все реле.
Запрос: FF 0F 00 00 08 01 00 70 5D
Ответ:  FF 0F 00 00 00 08 41 D3

5. Установите адрес устройства на 1.
Запрос: 00 10 00 00 00 01 02 00 01 6А 00
Ответ:  00 10 00 00 00 01 02 00 01 6A 00

Примечание: 9-й байт 0x01 отправленного кадра — это адрес устройства, который необходимо записать(1).

6. Установите адрес устройства 255.
Запрос: 00 10 00 00 00 01 02 00 FF EB 80
Ответ:  00 10 00 00 00 01 02 00 FF EB 80

Примечание: 9-й байт 0xFF отправленного кадра — это адрес устройства, который необходимо записать(255).

7. Прочтите адрес устройства.
Запрос: 00 03 00 00 00 01 85 DB
Ответ:  00 03 02 00 FF C5 C4

Примечание: Пятый байт возвращенного кадра, 0xFF, представляет собой адрес устройства.

8. Чтение состояния реле
Запрос: FF 01 00 00 00 08 28 12
Ответ:  FF 01 01 01 A1 A0 (Реле 1 Замкнуто)
		FF 01 01 00 60 60 (Реле 1 Разомкнуто)

Примечание: Биты 0 – 7 четвертого байта 0x01 возвращенного кадра соответственно обозначают реле 1 – 8, 
0 означает закрытое, 1 означает открытое.

9. Чтение состояния входа оптопары.
Запрос: FF 02 00 00 00 08 6C 12
Ответ:  FF 02 01 01 51 A0 (Оптопара включена)
		FF 02 01 00 90 60 (Оптопара отключена)

Примечание: Биты 0 - 7 четвертого байта 0x01 возвращенного кадра соответственно представляют собой входное
состояние оптопары 1 - 8, 0 представляет низкий уровень, а 1 представляет высокий уровень.

10. Установка скорости передачи данных 4800 бод.
Запрос: FF 10 03 E9 00 01 02 00 02 4A OC
Ответ:  FF 10 03 E9 00 01 C5 A7

Примечание: 9-й байт отправленного кадра представляет собой значение настройки скорости передачи данных. 
0x02, 0x03, x04 соответственно обозначают 4800, 9600, 19200.

11. Установка скорости передачи данных 9600.
Запрос: FF 10 03 E9 00 01 02 00 03 8B CC
Ответ:  FF 10 03 E9 00 01 C5 A7

12. Установка скорости передачи данных 19200 бод.
Запрос: FF 10 03 E9 00 01 02 00 04 CA 0E
Ответ:  FF 10 03 E9 00 01 C5 A7

13, Чтение скорости передачи данных
Запрос: FF 03 03 E8 00 01 11 A4
Ответ:  FF 03 02 00 03 D1 91 (9600 бод)

Примечание: 5-й байт возвращенного кадра представляет скорость чтения, 0x02, 0x03 и x04 представляют 4800,
9600 и 19200 соответственно.

14. Временно замкнуть реле №1 (С задержкой 2 секунды)
Запрос: FF 10 00 03 00 02 04 00 04 00 14 C5 9F
Ответ:  FF 10 00 03 00 02 A4 16

Примечания: Байты 3 - 4 отправленного кадра представляют адрес реле 1 – 8: 0x0003, 0x0008, 0x000D, 0x0012,
0x0017, 0x001C, 0x0021, 0x0026 соответственно.
Байты с 10 по 11 отправленного кадра представляют значение настройки задержки. Базовая задержка составляет 0,1 с, 
поэтому время задержки составляет 0x0014*0,1 = 20*0,1 =2 с. Реле автоматически разомкнется после замыкания длительностью 2 с.
Минимальное время задержки ~1c (0x000A), максимальное время задержки ~6553c - 109 минут  (0xFFFF)

15. Временно разомкнуть реле №1 (С задержкой 3 секунды)
Запрос: FF 10 00 03 00 02 04 00 02 00 1E A5 99
Ответ:  FF 10 00 03 00 02 A4 16

Примечания: Байты 3 - 4 отправленного кадра представляют адрес реле 1 - 8: 0x0003, 0x0008, 0x000D, 0x0012,
0x0017, 0x001C, 0x0021, 0x0026 соответственно.
Байты с 10 по 11 отправленного кадра представляют значение настройки задержки. Базовая задержка составляет 0,1 с,
поэтому время задержки составляет 0x001E*0,1 = 30*0,1 =3 с. Реле автоматически замкнется после размыкания длительностью 3 с.
Минимальное время задержки ~1c (0x000A), максимальное время задержки ~6553c - 109 минут  (0xFFFF)
